
T0920 000:386 SEGGER J-Link V4.78h Log File (0001ms, 0271ms total)
T0920 000:386 DLL Compiled: Nov 19 2013 21:34:25 (0001ms, 0271ms total)
T0920 000:386 Logging started @ 2015-03-25 17:13 (0001ms, 0271ms total)
T0920 000:387 JLINK_SetWarnOutHandler(...) (0000ms, 0271ms total)
T0920 000:387 JLINK_OpenEx(...)
Firmware: J-Link V9 compiled Dec 19 2014 16:50:53
Hardware: V9.20
Feature(s): GDB, RDI, FlashBP, FlashDL, JFlash  returns O.K. (0269ms, 0540ms total)
T0920 000:656 JLINK_SetErrorOutHandler(...) (0000ms, 0540ms total)
T0920 000:656 JLINK_ExecCommand("ProjectFile = "D:\stm32\STM32F103_WTD_Carit_20150319\Project\FreeRTOS_WTD\User\MDK-ARM\JLinkSettings.ini"", ...)  returns 0x00 (0001ms, 0541ms total)
T0920 000:668 JLINK_ExecCommand("Device = STM32F103RB", ...)Device "STM32F103RB" selected (128 KB flash, 20 KB RAM).  returns 0x00 (0005ms, 0546ms total)
T0920 000:673 JLINK_ExecCommand("DisableConnectionTimeout", ...)  returns 0x01 (0000ms, 0546ms total)
T0920 000:673 JLINK_TIF_Select(JLINKARM_TIF_SWD)  returns 0x00 (0003ms, 0549ms total)
T0920 000:676 JLINK_SetSpeed(5000) (0001ms, 0550ms total)
T0920 000:677 JLINK_GetHardwareVersion()  returns 0x16760 (0000ms, 0550ms total)
T0920 000:677 JLINK_GetDLLVersion()  returns 47808 (0000ms, 0550ms total)
T0920 000:677 JLINK_GetFirmwareString(...) (0000ms, 0550ms total)
T0920 000:692 JLINK_GetDLLVersion()  returns 47808 (0000ms, 0550ms total)
T0920 000:692 JLINK_GetCompileDateTime() (0000ms, 0550ms total)
T0920 000:698 JLINK_GetFirmwareString(...) (0000ms, 0550ms total)
T0920 000:702 JLINK_GetHardwareVersion()  returns 0x16760 (0000ms, 0550ms total)
T0920 000:716 JLINK_GetId() >0x108 TIF>Found SWD-DP with ID 0x1BA01477 >0x0D TIF> >0x28 TIF> >0x0D TIF> >0x28 TIF> >0x0D TIF> >0x21 TIF> >0x0D TIF> >0x28 TIF> >0x0D TIF> >0x28 TIF> >0x0D TIF> >0x28 TIF> >0x0D TIF> >0x21 TIF> >0x0D TIF> >0x21 TIF> >0x0D TIF> >0x28 TIF> >0x0D TIF> >0x21 TIF> >0x0D TIF> >0x21 TIF> >0x108 TIF>Found SWD-DP with ID 0x1BA01477 >0x0D TIF> >0x21 TIF> >0x0D TIF> >0x28 TIF> >0x0D TIF> >0x28 TIF> >0x0D TIF> >0x21 TIF> >0x0D TIF> >0x28 TIF> >0x0D TIF> >0x21 TIF> >0x0D TIF> >0x21 TIF>
 >0x0D TIF> >0x21 TIF> >0x0D TIF> >0x21 TIF> >0x0D TIF> >0x28 TIF> >0x0D TIF> >0x28 TIF> >0x0D TIF> >0x21 TIF> >0x0D TIF> >0x28 TIF> >0x0D TIF> >0x28 TIF> >0x0D TIF> >0x28 TIF> >0x0D TIF> >0x21 TIF> >0x0D TIF> >0x21 TIF> >0x0D TIF> >0x28 TIF> >0x0D TIF> >0x21 TIF> >0x0D TIF> >0x21 TIF>Found Cortex-M3 r1p1, Little endian. -- CPU_WriteMem(4 bytes @ 0xE0002000) -- CPU_ReadMem(4 bytes @ 0xE000EDF0) -- CPU_ReadMem(4 bytes @ 0xE0002000)FPUnit: 6 code (BP) slots and 2 literal slots
 -- CPU_ReadMem(4 bytes @ 0xE000EDFC) -- CPU_ReadMem(4 bytes @ 0xE0001000) -- CPU_WriteMem(4 bytes @ 0xE0001000) -- CPU_ReadMem(4 bytes @ 0xE00FF010)TPIU fitted. -- CPU_ReadMem(4 bytes @ 0xE00FF014) -- CPU_ReadMem(4 bytes @ 0xE00FF018) >0x0D TIF> >0x21 TIF>  returns 0x1BA01477 (0067ms, 0617ms total)
T0920 000:783 JLINK_GetDeviceFamily()  returns 3 (0000ms, 0617ms total)
T0920 000:788 JLINK_ReadMem (0xE00FFFF0, 0x0010 Bytes, ...) -- CPU is running -- CPU_ReadMem(16 bytes @ 0xE00FFFF0) -- Data:  0D 00 00 00 10 00 00 00 05 00 00 00 B1 00 00 00  returns 0x00 (0001ms, 0618ms total)
T0920 000:789 JLINK_ReadMem (0xE00FFFD0, 0x0020 Bytes, ...) -- CPU is running -- CPU_ReadMem(32 bytes @ 0xE00FFFD0) -- Data:  00 00 00 00 00 00 00 00 00 00 00 00 00 00 00 00 ...  returns 0x00 (0000ms, 0618ms total)
T0920 000:789 JLINK_ReadMem (0xE00FF000, 0x0018 Bytes, ...) -- CPU is running -- CPU_ReadMem(24 bytes @ 0xE00FF000) -- Data:  03 F0 F0 FF 03 20 F0 FF 03 30 F0 FF 03 10 F0 FF ...  returns 0x00 (0001ms, 0619ms total)
T0920 000:790 JLINK_ReadMemU32(0xE000ED00, 0x0001 Items, ...) -- CPU is running -- CPU_ReadMem(4 bytes @ 0xE000ED00) -- Data:  31 C2 1F 41  returns 0x01 (0001ms, 0620ms total)
T0920 000:791 JLINK_SetResetType(JLINKARM_RESET_TYPE_NORMAL)  returns JLINKARM_RESET_TYPE_NORMAL (0000ms, 0620ms total)
T0920 000:791 JLINK_Reset() -- CPU is running -- CPU_WriteMem(4 bytes @ 0xE000EDF0) -- CPU is running -- CPU_WriteMem(4 bytes @ 0xE000EDFC) >0x35 TIF> -- CPU is running -- CPU_WriteMem(4 bytes @ 0xE000ED0C) -- CPU is running -- CPU_ReadMem(4 bytes @ 0xE000EDF0) -- CPU is running -- CPU_ReadMem(4 bytes @ 0xE000EDF0) -- CPU is running -- CPU_WriteMem(4 bytes @ 0xE000EDF0) -- CPU is running -- CPU_WriteMem(4 bytes @ 0xE000EDFC) -- CPU is running -- CPU_ReadMem(4 bytes @ 0xE000EDF0)
 -- CPU_WriteMem(4 bytes @ 0xE0002000) (0016ms, 0636ms total)
T0920 000:807 JLINK_Halt()  returns 0x00 (0000ms, 0636ms total)
T0920 000:807 JLINK_IsHalted()  returns TRUE (0000ms, 0636ms total)
T0920 000:807 JLINK_ReadMemU32(0xE000EDF0, 0x0001 Items, ...) -- CPU_ReadMem(4 bytes @ 0xE000EDF0) -- Data:  03 00 03 00  returns 0x01 (0001ms, 0637ms total)
T0920 000:808 JLINK_WriteU32(0xE000EDF0, 0xA05F0003) -- CPU_WriteMem(4 bytes @ 0xE000EDF0)  returns 0x00 (0001ms, 0638ms total)
T0920 000:809 JLINK_WriteU32(0xE000EDFC, 0x01000000) -- CPU_WriteMem(4 bytes @ 0xE000EDFC)  returns 0x00 (0000ms, 0638ms total)
T0920 000:826 JLINK_GetHWStatus(...)  returns 0x00 (0001ms, 0639ms total)
T0920 000:839 JLINK_GetNumBPUnits(Type = 0xFFFFFF00)  returns 0x06 (0000ms, 0639ms total)
T0920 000:839 JLINK_GetNumBPUnits(Type = 0xF0)  returns 0x2000 (0000ms, 0639ms total)
T0920 000:839 JLINK_GetNumWPUnits()  returns 0x04 (0000ms, 0639ms total)
T0920 000:851 JLINK_GetSpeed()  returns 0xFA0 (0000ms, 0639ms total)
T0920 000:860 JLINK_ReadMemU32(0xE000E004, 0x0001 Items, ...) -- CPU_ReadMem(4 bytes @ 0xE000E004) -- Data:  01 00 00 00  returns 0x01 (0001ms, 0640ms total)
T0920 000:861 JLINK_ReadMemU32(0xE000E004, 0x0001 Items, ...) -- CPU_ReadMem(4 bytes @ 0xE000E004) -- Data:  01 00 00 00  returns 0x01 (0001ms, 0641ms total)
T0920 000:862 JLINK_WriteMem(0xE0001000, 0x001C Bytes, ...) -- Data:  01 00 00 00 00 00 00 00 00 00 00 00 00 00 00 00 ... -- CPU_WriteMem(28 bytes @ 0xE0001000)  returns 0x1C (0001ms, 0642ms total)
T0920 000:863 JLINK_ReadMem (0xE0001000, 0x001C Bytes, ...) -- CPU_ReadMem(28 bytes @ 0xE0001000) -- Data:  01 00 00 40 00 00 00 00 00 00 00 00 00 00 00 00 ...  returns 0x00 (0001ms, 0643ms total)
T0920 000:864 JLINK_Halt()  returns 0x00 (0000ms, 0643ms total)
T0920 000:864 JLINK_IsHalted()  returns TRUE (0000ms, 0643ms total)
T0920 000:867 JLINK_WriteMem(0x20000000, 0x0164 Bytes, ...) -- Data:  00 BE 0A E0 0D 78 2D 06 68 40 08 24 40 00 00 D3 ... -- CPU_WriteMem(356 bytes @ 0x20000000)  returns 0x164 (0002ms, 0645ms total)
T0920 000:869 JLINK_WriteReg(R0, 0x08000000)  returns 0x00 (0001ms, 0646ms total)
T0920 000:870 JLINK_WriteReg(R1, 0x007A1200)  returns 0x00 (0000ms, 0646ms total)
T0920 000:870 JLINK_WriteReg(R2, 0x00000001)  returns 0x00 (0000ms, 0646ms total)
T0920 000:870 JLINK_WriteReg(R3, 0x00000000)  returns 0x00 (0000ms, 0646ms total)
T0920 000:870 JLINK_WriteReg(R4, 0x00000000)  returns 0x00 (0000ms, 0646ms total)
T0920 000:870 JLINK_WriteReg(R5, 0x00000000)  returns 0x00 (0000ms, 0646ms total)
T0920 000:870 JLINK_WriteReg(R6, 0x00000000)  returns 0x00 (0000ms, 0646ms total)
T0920 000:870 JLINK_WriteReg(R7, 0x00000000)  returns 0x00 (0000ms, 0646ms total)
T0920 000:870 JLINK_WriteReg(R8, 0x00000000)  returns 0x00 (0000ms, 0646ms total)
T0920 000:870 JLINK_WriteReg(R9, 0x20000160)  returns 0x00 (0000ms, 0646ms total)
T0920 000:870 JLINK_WriteReg(R10, 0x00000000)  returns 0x00 (0000ms, 0646ms total)
T0920 000:870 JLINK_WriteReg(R11, 0x00000000)  returns 0x00 (0000ms, 0646ms total)
T0920 000:870 JLINK_WriteReg(R12, 0x00000000)  returns 0x00 (0000ms, 0646ms total)
T0920 000:870 JLINK_WriteReg(R13 (SP), 0x20000800)  returns 0x00 (0000ms, 0646ms total)
T0920 000:870 JLINK_WriteReg(R14, 0x20000001)  returns 0x00 (0000ms, 0646ms total)
T0920 000:870 JLINK_WriteReg(R15 (PC), 0x20000038)  returns 0x00 (0000ms, 0646ms total)
T0920 000:870 JLINK_WriteReg(XPSR, 0x01000000)  returns 0x00 (0000ms, 0646ms total)
T0920 000:870 JLINK_WriteReg(MSP, 0x20000800)  returns 0x00 (0000ms, 0646ms total)
T0920 000:870 JLINK_WriteReg(PSP, 0x20000800)  returns 0x00 (0000ms, 0646ms total)
T0920 000:870 JLINK_WriteReg(CFBP, 0x00000000)  returns 0x00 (0000ms, 0646ms total)
T0920 000:870 JLINK_SetBPEx(Addr = 0x20000000, Type = 0xFFFFFFF2) -- CPU_ReadMem(2 bytes @ 0x20000000)  returns 0x00000001 (0001ms, 0647ms total)
T0920 000:871 JLINK_Go() -- CPU_WriteMem(2 bytes @ 0x20000000) -- CPU_WriteMem(4 bytes @ 0xE0002008) -- CPU_WriteMem(4 bytes @ 0xE000200C) -- CPU_WriteMem(4 bytes @ 0xE0002010) -- CPU_WriteMem(4 bytes @ 0xE0002014) -- CPU_WriteMem(4 bytes @ 0xE0002018) -- CPU_WriteMem(4 bytes @ 0xE000201C) (0006ms, 0653ms total)
T0920 000:877 JLINK_IsHalted() -- CPU_ReadMem(2 bytes @ 0x20000000)  returns TRUE (0003ms, 0656ms total)
T0920 000:880 JLINK_ReadReg(R15 (PC))  returns 0x20000000 (0000ms, 0653ms total)
T0920 000:880 JLINK_ClrBPEx(BPHandle = 0x00000001)  returns 0x00 (0000ms, 0653ms total)
T0920 000:880 JLINK_ReadReg(R0)  returns 0x00000000 (0000ms, 0653ms total)
T0920 000:880 JLINK_WriteReg(R0, 0x08000000)  returns 0x00 (0000ms, 0653ms total)
T0920 000:880 JLINK_WriteReg(R1, 0x00000400)  returns 0x00 (0000ms, 0653ms total)
T0920 000:880 JLINK_WriteReg(R2, 0x000000FF)  returns 0x00 (0000ms, 0653ms total)
T0920 000:880 JLINK_WriteReg(R3, 0x00000000)  returns 0x00 (0000ms, 0653ms total)
T0920 000:880 JLINK_WriteReg(R4, 0x00000000)  returns 0x00 (0000ms, 0653ms total)
T0920 000:880 JLINK_WriteReg(R5, 0x00000000)  returns 0x00 (0000ms, 0653ms total)
T0920 000:880 JLINK_WriteReg(R6, 0x00000000)  returns 0x00 (0000ms, 0653ms total)
T0920 000:880 JLINK_WriteReg(R7, 0x00000000)  returns 0x00 (0000ms, 0653ms total)
T0920 000:880 JLINK_WriteReg(R8, 0x00000000)  returns 0x00 (0000ms, 0653ms total)
T0920 000:880 JLINK_WriteReg(R9, 0x20000160)  returns 0x00 (0000ms, 0653ms total)
T0920 000:880 JLINK_WriteReg(R10, 0x00000000)  returns 0x00 (0000ms, 0653ms total)
T0920 000:880 JLINK_WriteReg(R11, 0x00000000)  returns 0x00 (0000ms, 0653ms total)
T0920 000:880 JLINK_WriteReg(R12, 0x00000000)  returns 0x00 (0000ms, 0653ms total)
T0920 000:880 JLINK_WriteReg(R13 (SP), 0x20000800)  returns 0x00 (0000ms, 0653ms total)
T0920 000:880 JLINK_WriteReg(R14, 0x20000001)  returns 0x00 (0000ms, 0653ms total)
T0920 000:880 JLINK_WriteReg(R15 (PC), 0x20000020)  returns 0x00 (0000ms, 0653ms total)
T0920 000:880 JLINK_WriteReg(XPSR, 0x01000000)  returns 0x00 (0000ms, 0653ms total)
T0920 000:880 JLINK_WriteReg(MSP, 0x20000800)  returns 0x00 (0001ms, 0654ms total)
T0920 000:881 JLINK_WriteReg(PSP, 0x20000800)  returns 0x00 (0000ms, 0654ms total)
T0920 000:881 JLINK_WriteReg(CFBP, 0x00000000)  returns 0x00 (0000ms, 0654ms total)
T0920 000:881 JLINK_SetBPEx(Addr = 0x20000000, Type = 0xFFFFFFF2)  returns 0x00000002 (0000ms, 0654ms total)
T0920 000:881 JLINK_Go() (0001ms, 0655ms total)
T0920 000:882 JLINK_IsHalted() -- CPU_ReadMem(2 bytes @ 0x20000000)  returns TRUE (0002ms, 0657ms total)
T0920 000:884 JLINK_ReadReg(R15 (PC))  returns 0x20000000 (0000ms, 0655ms total)
T0920 000:884 JLINK_ClrBPEx(BPHandle = 0x00000002)  returns 0x00 (0000ms, 0655ms total)
T0920 000:884 JLINK_ReadReg(R0)  returns 0x00000001 (0001ms, 0656ms total)
T0920 000:885 JLINK_WriteReg(R0, 0x08000000)  returns 0x00 (0000ms, 0656ms total)
T0920 000:885 JLINK_WriteReg(R1, 0x00000400)  returns 0x00 (0000ms, 0656ms total)
T0920 000:885 JLINK_WriteReg(R2, 0x000000FF)  returns 0x00 (0000ms, 0656ms total)
T0920 000:885 JLINK_WriteReg(R3, 0x00000000)  returns 0x00 (0000ms, 0656ms total)
T0920 000:885 JLINK_WriteReg(R4, 0x00000000)  returns 0x00 (0000ms, 0656ms total)
T0920 000:885 JLINK_WriteReg(R5, 0x00000000)  returns 0x00 (0000ms, 0656ms total)
T0920 000:885 JLINK_WriteReg(R6, 0x00000000)  returns 0x00 (0000ms, 0656ms total)
T0920 000:885 JLINK_WriteReg(R7, 0x00000000)  returns 0x00 (0000ms, 0656ms total)
T0920 000:885 JLINK_WriteReg(R8, 0x00000000)  returns 0x00 (0000ms, 0656ms total)
T0920 000:885 JLINK_WriteReg(R9, 0x20000160)  returns 0x00 (0000ms, 0656ms total)
T0920 000:885 JLINK_WriteReg(R10, 0x00000000)  returns 0x00 (0000ms, 0656ms total)
T0920 000:885 JLINK_WriteReg(R11, 0x00000000)  returns 0x00 (0000ms, 0656ms total)
T0920 000:885 JLINK_WriteReg(R12, 0x00000000)  returns 0x00 (0000ms, 0656ms total)
T0920 000:885 JLINK_WriteReg(R13 (SP), 0x20000800)  returns 0x00 (0000ms, 0656ms total)
T0920 000:885 JLINK_WriteReg(R14, 0x20000001)  returns 0x00 (0000ms, 0656ms total)
T0920 000:885 JLINK_WriteReg(R15 (PC), 0x200000B6)  returns 0x00 (0000ms, 0656ms total)
T0920 000:885 JLINK_WriteReg(XPSR, 0x01000000)  returns 0x00 (0000ms, 0656ms total)
T0920 000:885 JLINK_WriteReg(MSP, 0x20000800)  returns 0x00 (0000ms, 0656ms total)
T0920 000:885 JLINK_WriteReg(PSP, 0x20000800)  returns 0x00 (0000ms, 0656ms total)
T0920 000:885 JLINK_WriteReg(CFBP, 0x00000000)  returns 0x00 (0000ms, 0656ms total)
T0920 000:885 JLINK_SetBPEx(Addr = 0x20000000, Type = 0xFFFFFFF2)  returns 0x00000003 (0000ms, 0656ms total)
T0920 000:885 JLINK_Go() (0001ms, 0657ms total)
T0920 000:886 JLINK_IsHalted()  returns FALSE (0001ms, 0658ms total)
T0920 001:017 JLINK_IsHalted() -- CPU_ReadMem(2 bytes @ 0x20000000)  returns TRUE (0002ms, 0659ms total)
T0920 001:019 JLINK_ReadReg(R15 (PC))  returns 0x20000000 (0000ms, 0657ms total)
T0920 001:019 JLINK_ClrBPEx(BPHandle = 0x00000003)  returns 0x00 (0000ms, 0657ms total)
T0920 001:019 JLINK_ReadReg(R0)  returns 0x00000000 (0000ms, 0657ms total)
T0920 001:020 JLINK_WriteReg(R0, 0x08000400)  returns 0x00 (0000ms, 0657ms total)
T0920 001:020 JLINK_WriteReg(R1, 0x00000400)  returns 0x00 (0000ms, 0657ms total)
T0920 001:020 JLINK_WriteReg(R2, 0x000000FF)  returns 0x00 (0000ms, 0657ms total)
T0920 001:020 JLINK_WriteReg(R3, 0x00000000)  returns 0x00 (0000ms, 0657ms total)
T0920 001:020 JLINK_WriteReg(R4, 0x00000000)  returns 0x00 (0000ms, 0657ms total)
T0920 001:020 JLINK_WriteReg(R5, 0x00000000)  returns 0x00 (0000ms, 0657ms total)
T0920 001:020 JLINK_WriteReg(R6, 0x00000000)  returns 0x00 (0000ms, 0657ms total)
T0920 001:020 JLINK_WriteReg(R7, 0x00000000)  returns 0x00 (0000ms, 0657ms total)
T0920 001:020 JLINK_WriteReg(R8, 0x00000000)  returns 0x00 (0000ms, 0657ms total)
T0920 001:020 JLINK_WriteReg(R9, 0x20000160)  returns 0x00 (0000ms, 0657ms total)
T0920 001:020 JLINK_WriteReg(R10, 0x00000000)  returns 0x00 (0000ms, 0657ms total)
T0920 001:020 JLINK_WriteReg(R11, 0x00000000)  returns 0x00 (0000ms, 0657ms total)
T0920 001:020 JLINK_WriteReg(R12, 0x00000000)  returns 0x00 (0000ms, 0657ms total)
T0920 001:020 JLINK_WriteReg(R13 (SP), 0x20000800)  returns 0x00 (0000ms, 0657ms total)
T0920 001:020 JLINK_WriteReg(R14, 0x20000001)  returns 0x00 (0000ms, 0657ms total)
T0920 001:020 JLINK_WriteReg(R15 (PC), 0x20000020)  returns 0x00 (0000ms, 0657ms total)
T0920 001:020 JLINK_WriteReg(XPSR, 0x01000000)  returns 0x00 (0000ms, 0657ms total)
T0920 001:020 JLINK_WriteReg(MSP, 0x20000800)  returns 0x00 (0000ms, 0657ms total)
T0920 001:020 JLINK_WriteReg(PSP, 0x20000800)  returns 0x00 (0000ms, 0657ms total)
T0920 001:020 JLINK_WriteReg(CFBP, 0x00000000)  returns 0x00 (0000ms, 0657ms total)
T0920 001:020 JLINK_SetBPEx(Addr = 0x20000000, Type = 0xFFFFFFF2)  returns 0x00000004 (0000ms, 0657ms total)
T0920 001:020 JLINK_Go() (0001ms, 0658ms total)
T0920 001:021 JLINK_IsHalted() -- CPU_ReadMem(2 bytes @ 0x20000000)  returns TRUE (0003ms, 0661ms total)
T0920 001:024 JLINK_ReadReg(R15 (PC))  returns 0x20000000 (0000ms, 0658ms total)
T0920 001:024 JLINK_ClrBPEx(BPHandle = 0x00000004)  returns 0x00 (0000ms, 0658ms total)
T0920 001:024 JLINK_ReadReg(R0)  returns 0x00000001 (0000ms, 0658ms total)
T0920 001:024 JLINK_WriteReg(R0, 0x08000400)  returns 0x00 (0000ms, 0658ms total)
T0920 001:024 JLINK_WriteReg(R1, 0x00000400)  returns 0x00 (0000ms, 0658ms total)
T0920 001:024 JLINK_WriteReg(R2, 0x000000FF)  returns 0x00 (0000ms, 0658ms total)
T0920 001:024 JLINK_WriteReg(R3, 0x00000000)  returns 0x00 (0000ms, 0658ms total)
T0920 001:024 JLINK_WriteReg(R4, 0x00000000)  returns 0x00 (0000ms, 0658ms total)
T0920 001:024 JLINK_WriteReg(R5, 0x00000000)  returns 0x00 (0000ms, 0658ms total)
T0920 001:024 JLINK_WriteReg(R6, 0x00000000)  returns 0x00 (0000ms, 0658ms total)
T0920 001:024 JLINK_WriteReg(R7, 0x00000000)  returns 0x00 (0000ms, 0658ms total)
T0920 001:024 JLINK_WriteReg(R8, 0x00000000)  returns 0x00 (0000ms, 0658ms total)
T0920 001:024 JLINK_WriteReg(R9, 0x20000160)  returns 0x00 (0000ms, 0658ms total)
T0920 001:024 JLINK_WriteReg(R10, 0x00000000)  returns 0x00 (0000ms, 0658ms total)
T0920 001:024 JLINK_WriteReg(R11, 0x00000000)  returns 0x00 (0000ms, 0658ms total)
T0920 001:024 JLINK_WriteReg(R12, 0x00000000)  returns 0x00 (0000ms, 0658ms total)
T0920 001:024 JLINK_WriteReg(R13 (SP), 0x20000800)  returns 0x00 (0000ms, 0658ms total)
T0920 001:024 JLINK_WriteReg(R14, 0x20000001)  returns 0x00 (0000ms, 0658ms total)
T0920 001:024 JLINK_WriteReg(R15 (PC), 0x200000B6)  returns 0x00 (0000ms, 0658ms total)
T0920 001:024 JLINK_WriteReg(XPSR, 0x01000000)  returns 0x00 (0000ms, 0658ms total)
T0920 001:024 JLINK_WriteReg(MSP, 0x20000800)  returns 0x00 (0000ms, 0658ms total)
T0920 001:024 JLINK_WriteReg(PSP, 0x20000800)  returns 0x00 (0000ms, 0658ms total)
T0920 001:024 JLINK_WriteReg(CFBP, 0x00000000)  returns 0x00 (0000ms, 0658ms total)
T0920 001:024 JLINK_SetBPEx(Addr = 0x20000000, Type = 0xFFFFFFF2)  returns 0x00000005 (0000ms, 0658ms total)
T0920 001:024 JLINK_Go() (0002ms, 0660ms total)
T0920 001:026 JLINK_IsHalted()  returns FALSE (0000ms, 0660ms total)
T0920 001:127 JLINK_IsHalted() -- CPU_ReadMem(2 bytes @ 0x20000000)  returns TRUE (0002ms, 0662ms total)
T0920 001:129 JLINK_ReadReg(R15 (PC))  returns 0x20000000 (0000ms, 0660ms total)
T0920 001:129 JLINK_ClrBPEx(BPHandle = 0x00000005)  returns 0x00 (0000ms, 0660ms total)
T0920 001:129 JLINK_ReadReg(R0)  returns 0x00000000 (0000ms, 0660ms total)
T0920 001:130 JLINK_WriteReg(R0, 0x08000800)  returns 0x00 (0000ms, 0660ms total)
T0920 001:130 JLINK_WriteReg(R1, 0x00000400)  returns 0x00 (0000ms, 0660ms total)
T0920 001:130 JLINK_WriteReg(R2, 0x000000FF)  returns 0x00 (0000ms, 0660ms total)
T0920 001:130 JLINK_WriteReg(R3, 0x00000000)  returns 0x00 (0000ms, 0660ms total)
T0920 001:130 JLINK_WriteReg(R4, 0x00000000)  returns 0x00 (0000ms, 0660ms total)
T0920 001:130 JLINK_WriteReg(R5, 0x00000000)  returns 0x00 (0000ms, 0660ms total)
T0920 001:130 JLINK_WriteReg(R6, 0x00000000)  returns 0x00 (0000ms, 0660ms total)
T0920 001:130 JLINK_WriteReg(R7, 0x00000000)  returns 0x00 (0000ms, 0660ms total)
T0920 001:130 JLINK_WriteReg(R8, 0x00000000)  returns 0x00 (0000ms, 0660ms total)
T0920 001:130 JLINK_WriteReg(R9, 0x20000160)  returns 0x00 (0000ms, 0660ms total)
T0920 001:130 JLINK_WriteReg(R10, 0x00000000)  returns 0x00 (0000ms, 0660ms total)
T0920 001:130 JLINK_WriteReg(R11, 0x00000000)  returns 0x00 (0000ms, 0660ms total)
T0920 001:130 JLINK_WriteReg(R12, 0x00000000)  returns 0x00 (0000ms, 0660ms total)
T0920 001:130 JLINK_WriteReg(R13 (SP), 0x20000800)  returns 0x00 (0000ms, 0660ms total)
T0920 001:130 JLINK_WriteReg(R14, 0x20000001)  returns 0x00 (0000ms, 0660ms total)
T0920 001:130 JLINK_WriteReg(R15 (PC), 0x20000020)  returns 0x00 (0000ms, 0660ms total)
T0920 001:130 JLINK_WriteReg(XPSR, 0x01000000)  returns 0x00 (0000ms, 0660ms total)
T0920 001:130 JLINK_WriteReg(MSP, 0x20000800)  returns 0x00 (0000ms, 0660ms total)
T0920 001:130 JLINK_WriteReg(PSP, 0x20000800)  returns 0x00 (0000ms, 0660ms total)
T0920 001:130 JLINK_WriteReg(CFBP, 0x00000000)  returns 0x00 (0000ms, 0660ms total)
T0920 001:130 JLINK_SetBPEx(Addr = 0x20000000, Type = 0xFFFFFFF2)  returns 0x00000006 (0000ms, 0660ms total)
T0920 001:130 JLINK_Go() (0002ms, 0662ms total)
T0920 001:132 JLINK_IsHalted() -- CPU_ReadMem(2 bytes @ 0x20000000)  returns TRUE (0002ms, 0664ms total)
T0920 001:134 JLINK_ReadReg(R15 (PC))  returns 0x20000000 (0000ms, 0662ms total)
T0920 001:134 JLINK_ClrBPEx(BPHandle = 0x00000006)  returns 0x00 (0000ms, 0662ms total)
T0920 001:134 JLINK_ReadReg(R0)  returns 0x00000001 (0000ms, 0662ms total)
T0920 001:134 JLINK_WriteReg(R0, 0x08000800)  returns 0x00 (0000ms, 0662ms total)
T0920 001:134 JLINK_WriteReg(R1, 0x00000400)  returns 0x00 (0000ms, 0662ms total)
T0920 001:134 JLINK_WriteReg(R2, 0x000000FF)  returns 0x00 (0000ms, 0662ms total)
T0920 001:134 JLINK_WriteReg(R3, 0x00000000)  returns 0x00 (0000ms, 0662ms total)
T0920 001:134 JLINK_WriteReg(R4, 0x00000000)  returns 0x00 (0000ms, 0662ms total)
T0920 001:134 JLINK_WriteReg(R5, 0x00000000)  returns 0x00 (0000ms, 0662ms total)
T0920 001:134 JLINK_WriteReg(R6, 0x00000000)  returns 0x00 (0000ms, 0662ms total)
T0920 001:134 JLINK_WriteReg(R7, 0x00000000)  returns 0x00 (0000ms, 0662ms total)
T0920 001:134 JLINK_WriteReg(R8, 0x00000000)  returns 0x00 (0000ms, 0662ms total)
T0920 001:134 JLINK_WriteReg(R9, 0x20000160)  returns 0x00 (0001ms, 0663ms total)
T0920 001:135 JLINK_WriteReg(R10, 0x00000000)  returns 0x00 (0000ms, 0663ms total)
T0920 001:135 JLINK_WriteReg(R11, 0x00000000)  returns 0x00 (0000ms, 0663ms total)
T0920 001:135 JLINK_WriteReg(R12, 0x00000000)  returns 0x00 (0000ms, 0663ms total)
T0920 001:135 JLINK_WriteReg(R13 (SP), 0x20000800)  returns 0x00 (0000ms, 0663ms total)
T0920 001:135 JLINK_WriteReg(R14, 0x20000001)  returns 0x00 (0000ms, 0663ms total)
T0920 001:135 JLINK_WriteReg(R15 (PC), 0x200000B6)  returns 0x00 (0000ms, 0663ms total)
T0920 001:135 JLINK_WriteReg(XPSR, 0x01000000)  returns 0x00 (0000ms, 0663ms total)
T0920 001:135 JLINK_WriteReg(MSP, 0x20000800)  returns 0x00 (0000ms, 0663ms total)
T0920 001:135 JLINK_WriteReg(PSP, 0x20000800)  returns 0x00 (0000ms, 0663ms total)
T0920 001:135 JLINK_WriteReg(CFBP, 0x00000000)  returns 0x00 (0000ms, 0663ms total)
T0920 001:135 JLINK_SetBPEx(Addr = 0x20000000, Type = 0xFFFFFFF2)  returns 0x00000007 (0000ms, 0663ms total)
T0920 001:135 JLINK_Go() (0001ms, 0664ms total)
T0920 001:136 JLINK_IsHalted()  returns FALSE (0001ms, 0665ms total)
T0920 001:158 JLINK_IsHalted() -- CPU_ReadMem(2 bytes @ 0x20000000)  returns TRUE (0002ms, 0666ms total)
T0920 001:160 JLINK_ReadReg(R15 (PC))  returns 0x20000000 (0000ms, 0664ms total)
T0920 001:160 JLINK_ClrBPEx(BPHandle = 0x00000007)  returns 0x00 (0000ms, 0664ms total)
T0920 001:160 JLINK_ReadReg(R0)  returns 0x00000000 (0000ms, 0664ms total)
T0920 001:161 JLINK_WriteReg(R0, 0x08000C00)  returns 0x00 (0000ms, 0664ms total)
T0920 001:161 JLINK_WriteReg(R1, 0x00000400)  returns 0x00 (0000ms, 0664ms total)
T0920 001:161 JLINK_WriteReg(R2, 0x000000FF)  returns 0x00 (0000ms, 0664ms total)
T0920 001:161 JLINK_WriteReg(R3, 0x00000000)  returns 0x00 (0000ms, 0664ms total)
T0920 001:161 JLINK_WriteReg(R4, 0x00000000)  returns 0x00 (0000ms, 0664ms total)
T0920 001:161 JLINK_WriteReg(R5, 0x00000000)  returns 0x00 (0000ms, 0664ms total)
T0920 001:161 JLINK_WriteReg(R6, 0x00000000)  returns 0x00 (0000ms, 0664ms total)
T0920 001:161 JLINK_WriteReg(R7, 0x00000000)  returns 0x00 (0000ms, 0664ms total)
T0920 001:161 JLINK_WriteReg(R8, 0x00000000)  returns 0x00 (0000ms, 0664ms total)
T0920 001:161 JLINK_WriteReg(R9, 0x20000160)  returns 0x00 (0000ms, 0664ms total)
T0920 001:161 JLINK_WriteReg(R10, 0x00000000)  returns 0x00 (0000ms, 0664ms total)
T0920 001:161 JLINK_WriteReg(R11, 0x00000000)  returns 0x00 (0000ms, 0664ms total)
T0920 001:161 JLINK_WriteReg(R12, 0x00000000)  returns 0x00 (0000ms, 0664ms total)
T0920 001:161 JLINK_WriteReg(R13 (SP), 0x20000800)  returns 0x00 (0000ms, 0664ms total)
T0920 001:161 JLINK_WriteReg(R14, 0x20000001)  returns 0x00 (0000ms, 0664ms total)
T0920 001:161 JLINK_WriteReg(R15 (PC), 0x20000020)  returns 0x00 (0000ms, 0664ms total)
T0920 001:161 JLINK_WriteReg(XPSR, 0x01000000)  returns 0x00 (0000ms, 0664ms total)
T0920 001:161 JLINK_WriteReg(MSP, 0x20000800)  returns 0x00 (0000ms, 0664ms total)
T0920 001:161 JLINK_WriteReg(PSP, 0x20000800)  returns 0x00 (0000ms, 0664ms total)
T0920 001:161 JLINK_WriteReg(CFBP, 0x00000000)  returns 0x00 (0000ms, 0664ms total)
T0920 001:161 JLINK_SetBPEx(Addr = 0x20000000, Type = 0xFFFFFFF2)  returns 0x00000008 (0000ms, 0664ms total)
T0920 001:161 JLINK_Go() (0002ms, 0666ms total)
T0920 001:163 JLINK_IsHalted() -- CPU_ReadMem(2 bytes @ 0x20000000)  returns TRUE (0002ms, 0668ms total)
T0920 001:165 JLINK_ReadReg(R15 (PC))  returns 0x20000000 (0000ms, 0666ms total)
T0920 001:165 JLINK_ClrBPEx(BPHandle = 0x00000008)  returns 0x00 (0000ms, 0666ms total)
T0920 001:165 JLINK_ReadReg(R0)  returns 0x00000001 (0000ms, 0666ms total)
T0920 001:165 JLINK_WriteReg(R0, 0x08000C00)  returns 0x00 (0000ms, 0666ms total)
T0920 001:165 JLINK_WriteReg(R1, 0x00000400)  returns 0x00 (0000ms, 0666ms total)
T0920 001:165 JLINK_WriteReg(R2, 0x000000FF)  returns 0x00 (0000ms, 0666ms total)
T0920 001:165 JLINK_WriteReg(R3, 0x00000000)  returns 0x00 (0000ms, 0666ms total)
T0920 001:165 JLINK_WriteReg(R4, 0x00000000)  returns 0x00 (0000ms, 0666ms total)
T0920 001:165 JLINK_WriteReg(R5, 0x00000000)  returns 0x00 (0001ms, 0667ms total)
T0920 001:166 JLINK_WriteReg(R6, 0x00000000)  returns 0x00 (0000ms, 0667ms total)
T0920 001:166 JLINK_WriteReg(R7, 0x00000000)  returns 0x00 (0000ms, 0667ms total)
T0920 001:166 JLINK_WriteReg(R8, 0x00000000)  returns 0x00 (0000ms, 0667ms total)
T0920 001:166 JLINK_WriteReg(R9, 0x20000160)  returns 0x00 (0000ms, 0667ms total)
T0920 001:166 JLINK_WriteReg(R10, 0x00000000)  returns 0x00 (0000ms, 0667ms total)
T0920 001:166 JLINK_WriteReg(R11, 0x00000000)  returns 0x00 (0000ms, 0667ms total)
T0920 001:166 JLINK_WriteReg(R12, 0x00000000)  returns 0x00 (0000ms, 0667ms total)
T0920 001:166 JLINK_WriteReg(R13 (SP), 0x20000800)  returns 0x00 (0000ms, 0667ms total)
T0920 001:166 JLINK_WriteReg(R14, 0x20000001)  returns 0x00 (0000ms, 0667ms total)
T0920 001:166 JLINK_WriteReg(R15 (PC), 0x200000B6)  returns 0x00 (0000ms, 0667ms total)
T0920 001:166 JLINK_WriteReg(XPSR, 0x01000000)  returns 0x00 (0000ms, 0667ms total)
T0920 001:166 JLINK_WriteReg(MSP, 0x20000800)  returns 0x00 (0000ms, 0667ms total)
T0920 001:166 JLINK_WriteReg(PSP, 0x20000800)  returns 0x00 (0000ms, 0667ms total)
T0920 001:166 JLINK_WriteReg(CFBP, 0x00000000)  returns 0x00 (0000ms, 0667ms total)
T0920 001:166 JLINK_SetBPEx(Addr = 0x20000000, Type = 0xFFFFFFF2)  returns 0x00000009 (0000ms, 0667ms total)
T0920 001:166 JLINK_Go() (0001ms, 0668ms total)
T0920 001:167 JLINK_IsHalted()  returns FALSE (0001ms, 0669ms total)
T0920 001:267 JLINK_IsHalted() -- CPU_ReadMem(2 bytes @ 0x20000000)  returns TRUE (0002ms, 0670ms total)
T0920 001:269 JLINK_ReadReg(R15 (PC))  returns 0x20000000 (0001ms, 0669ms total)
T0920 001:270 JLINK_ClrBPEx(BPHandle = 0x00000009)  returns 0x00 (0000ms, 0669ms total)
T0920 001:270 JLINK_ReadReg(R0)  returns 0x00000000 (0000ms, 0669ms total)
T0920 001:270 JLINK_WriteReg(R0, 0x08001000)  returns 0x00 (0000ms, 0669ms total)
T0920 001:270 JLINK_WriteReg(R1, 0x00000400)  returns 0x00 (0000ms, 0669ms total)
T0920 001:270 JLINK_WriteReg(R2, 0x000000FF)  returns 0x00 (0000ms, 0669ms total)
T0920 001:270 JLINK_WriteReg(R3, 0x00000000)  returns 0x00 (0000ms, 0669ms total)
T0920 001:270 JLINK_WriteReg(R4, 0x00000000)  returns 0x00 (0000ms, 0669ms total)
T0920 001:270 JLINK_WriteReg(R5, 0x00000000)  returns 0x00 (0000ms, 0669ms total)
T0920 001:270 JLINK_WriteReg(R6, 0x00000000)  returns 0x00 (0000ms, 0669ms total)
T0920 001:270 JLINK_WriteReg(R7, 0x00000000)  returns 0x00 (0000ms, 0669ms total)
T0920 001:270 JLINK_WriteReg(R8, 0x00000000)  returns 0x00 (0000ms, 0669ms total)
T0920 001:270 JLINK_WriteReg(R9, 0x20000160)  returns 0x00 (0000ms, 0669ms total)
T0920 001:270 JLINK_WriteReg(R10, 0x00000000)  returns 0x00 (0000ms, 0669ms total)
T0920 001:270 JLINK_WriteReg(R11, 0x00000000)  returns 0x00 (0000ms, 0669ms total)
T0920 001:270 JLINK_WriteReg(R12, 0x00000000)  returns 0x00 (0000ms, 0669ms total)
T0920 001:270 JLINK_WriteReg(R13 (SP), 0x20000800)  returns 0x00 (0000ms, 0669ms total)
T0920 001:270 JLINK_WriteReg(R14, 0x20000001)  returns 0x00 (0000ms, 0669ms total)
T0920 001:271 JLINK_WriteReg(R15 (PC), 0x20000020)  returns 0x00 (0000ms, 0670ms total)
T0920 001:271 JLINK_WriteReg(XPSR, 0x01000000)  returns 0x00 (0000ms, 0670ms total)
T0920 001:271 JLINK_WriteReg(MSP, 0x20000800)  returns 0x00 (0000ms, 0670ms total)
T0920 001:271 JLINK_WriteReg(PSP, 0x20000800)  returns 0x00 (0000ms, 0670ms total)
T0920 001:271 JLINK_WriteReg(CFBP, 0x00000000)  returns 0x00 (0000ms, 0670ms total)
T0920 001:271 JLINK_SetBPEx(Addr = 0x20000000, Type = 0xFFFFFFF2)  returns 0x0000000A (0000ms, 0670ms total)
T0920 001:271 JLINK_Go() (0001ms, 0671ms total)
T0920 001:272 JLINK_IsHalted() -- CPU_ReadMem(2 bytes @ 0x20000000)  returns TRUE (0002ms, 0673ms total)
T0920 001:274 JLINK_ReadReg(R15 (PC))  returns 0x20000000 (0000ms, 0671ms total)
T0920 001:274 JLINK_ClrBPEx(BPHandle = 0x0000000A)  returns 0x00 (0000ms, 0671ms total)
T0920 001:274 JLINK_ReadReg(R0)  returns 0x00000001 (0000ms, 0671ms total)
T0920 001:274 JLINK_WriteReg(R0, 0x08001000)  returns 0x00 (0000ms, 0671ms total)
T0920 001:274 JLINK_WriteReg(R1, 0x00000400)  returns 0x00 (0000ms, 0671ms total)
T0920 001:274 JLINK_WriteReg(R2, 0x000000FF)  returns 0x00 (0000ms, 0671ms total)
T0920 001:274 JLINK_WriteReg(R3, 0x00000000)  returns 0x00 (0000ms, 0671ms total)
T0920 001:274 JLINK_WriteReg(R4, 0x00000000)  returns 0x00 (0000ms, 0671ms total)
T0920 001:274 JLINK_WriteReg(R5, 0x00000000)  returns 0x00 (0000ms, 0671ms total)
T0920 001:274 JLINK_WriteReg(R6, 0x00000000)  returns 0x00 (0000ms, 0671ms total)
T0920 001:274 JLINK_WriteReg(R7, 0x00000000)  returns 0x00 (0001ms, 0672ms total)
T0920 001:275 JLINK_WriteReg(R8, 0x00000000)  returns 0x00 (0000ms, 0672ms total)
T0920 001:275 JLINK_WriteReg(R9, 0x20000160)  returns 0x00 (0000ms, 0672ms total)
T0920 001:275 JLINK_WriteReg(R10, 0x00000000)  returns 0x00 (0000ms, 0672ms total)
T0920 001:275 JLINK_WriteReg(R11, 0x00000000)  returns 0x00 (0000ms, 0672ms total)
T0920 001:275 JLINK_WriteReg(R12, 0x00000000)  returns 0x00 (0000ms, 0672ms total)
T0920 001:275 JLINK_WriteReg(R13 (SP), 0x20000800)  returns 0x00 (0000ms, 0672ms total)
T0920 001:275 JLINK_WriteReg(R14, 0x20000001)  returns 0x00 (0000ms, 0672ms total)
T0920 001:275 JLINK_WriteReg(R15 (PC), 0x200000B6)  returns 0x00 (0000ms, 0672ms total)
T0920 001:275 JLINK_WriteReg(XPSR, 0x01000000)  returns 0x00 (0000ms, 0672ms total)
T0920 001:275 JLINK_WriteReg(MSP, 0x20000800)  returns 0x00 (0000ms, 0672ms total)
T0920 001:275 JLINK_WriteReg(PSP, 0x20000800)  returns 0x00 (0000ms, 0672ms total)
T0920 001:275 JLINK_WriteReg(CFBP, 0x00000000)  returns 0x00 (0000ms, 0672ms total)
T0920 001:275 JLINK_SetBPEx(Addr = 0x20000000, Type = 0xFFFFFFF2)  returns 0x0000000B (0000ms, 0672ms total)
T0920 001:275 JLINK_Go() (0001ms, 0673ms total)
T0920 001:276 JLINK_IsHalted()  returns FALSE (0001ms, 0674ms total)
T0920 001:395 JLINK_IsHalted() -- CPU_ReadMem(2 bytes @ 0x20000000)  returns TRUE (0002ms, 0675ms total)
T0920 001:397 JLINK_ReadReg(R15 (PC))  returns 0x20000000 (0000ms, 0673ms total)
T0920 001:397 JLINK_ClrBPEx(BPHandle = 0x0000000B)  returns 0x00 (0000ms, 0673ms total)
T0920 001:397 JLINK_ReadReg(R0)  returns 0x00000000 (0000ms, 0673ms total)
T0920 001:398 JLINK_WriteReg(R0, 0x08001400)  returns 0x00 (0000ms, 0673ms total)
T0920 001:398 JLINK_WriteReg(R1, 0x00000400)  returns 0x00 (0000ms, 0673ms total)
T0920 001:398 JLINK_WriteReg(R2, 0x000000FF)  returns 0x00 (0000ms, 0673ms total)
T0920 001:398 JLINK_WriteReg(R3, 0x00000000)  returns 0x00 (0000ms, 0673ms total)
T0920 001:398 JLINK_WriteReg(R4, 0x00000000)  returns 0x00 (0000ms, 0673ms total)
T0920 001:398 JLINK_WriteReg(R5, 0x00000000)  returns 0x00 (0000ms, 0673ms total)
T0920 001:398 JLINK_WriteReg(R6, 0x00000000)  returns 0x00 (0000ms, 0673ms total)
T0920 001:398 JLINK_WriteReg(R7, 0x00000000)  returns 0x00 (0000ms, 0673ms total)
T0920 001:398 JLINK_WriteReg(R8, 0x00000000)  returns 0x00 (0000ms, 0673ms total)
T0920 001:398 JLINK_WriteReg(R9, 0x20000160)  returns 0x00 (0000ms, 0673ms total)
T0920 001:398 JLINK_WriteReg(R10, 0x00000000)  returns 0x00 (0000ms, 0673ms total)
T0920 001:398 JLINK_WriteReg(R11, 0x00000000)  returns 0x00 (0000ms, 0673ms total)
T0920 001:398 JLINK_WriteReg(R12, 0x00000000)  returns 0x00 (0000ms, 0673ms total)
T0920 001:398 JLINK_WriteReg(R13 (SP), 0x20000800)  returns 0x00 (0000ms, 0673ms total)
T0920 001:398 JLINK_WriteReg(R14, 0x20000001)  returns 0x00 (0000ms, 0673ms total)
T0920 001:398 JLINK_WriteReg(R15 (PC), 0x20000020)  returns 0x00 (0000ms, 0673ms total)
T0920 001:398 JLINK_WriteReg(XPSR, 0x01000000)  returns 0x00 (0000ms, 0673ms total)
T0920 001:398 JLINK_WriteReg(MSP, 0x20000800)  returns 0x00 (0000ms, 0673ms total)
T0920 001:399 JLINK_WriteReg(PSP, 0x20000800)  returns 0x00 (0000ms, 0674ms total)
T0920 001:399 JLINK_WriteReg(CFBP, 0x00000000)  returns 0x00 (0000ms, 0674ms total)
T0920 001:399 JLINK_SetBPEx(Addr = 0x20000000, Type = 0xFFFFFFF2)  returns 0x0000000C (0000ms, 0674ms total)
T0920 001:399 JLINK_Go() (0001ms, 0675ms total)
T0920 001:400 JLINK_IsHalted() -- CPU_ReadMem(2 bytes @ 0x20000000)  returns TRUE (0002ms, 0677ms total)
T0920 001:402 JLINK_ReadReg(R15 (PC))  returns 0x20000000 (0000ms, 0675ms total)
T0920 001:402 JLINK_ClrBPEx(BPHandle = 0x0000000C)  returns 0x00 (0001ms, 0676ms total)
T0920 001:403 JLINK_ReadReg(R0)  returns 0x00000001 (0000ms, 0676ms total)
T0920 001:403 JLINK_WriteReg(R0, 0x08001400)  returns 0x00 (0000ms, 0676ms total)
T0920 001:403 JLINK_WriteReg(R1, 0x00000400)  returns 0x00 (0000ms, 0676ms total)
T0920 001:403 JLINK_WriteReg(R2, 0x000000FF)  returns 0x00 (0000ms, 0676ms total)
T0920 001:403 JLINK_WriteReg(R3, 0x00000000)  returns 0x00 (0000ms, 0676ms total)
T0920 001:403 JLINK_WriteReg(R4, 0x00000000)  returns 0x00 (0000ms, 0676ms total)
T0920 001:403 JLINK_WriteReg(R5, 0x00000000)  returns 0x00 (0000ms, 0676ms total)
T0920 001:403 JLINK_WriteReg(R6, 0x00000000)  returns 0x00 (0000ms, 0676ms total)
T0920 001:403 JLINK_WriteReg(R7, 0x00000000)  returns 0x00 (0000ms, 0676ms total)
T0920 001:403 JLINK_WriteReg(R8, 0x00000000)  returns 0x00 (0000ms, 0676ms total)
T0920 001:403 JLINK_WriteReg(R9, 0x20000160)  returns 0x00 (0000ms, 0676ms total)
T0920 001:403 JLINK_WriteReg(R10, 0x00000000)  returns 0x00 (0000ms, 0676ms total)
T0920 001:403 JLINK_WriteReg(R11, 0x00000000)  returns 0x00 (0000ms, 0676ms total)
T0920 001:403 JLINK_WriteReg(R12, 0x00000000)  returns 0x00 (0000ms, 0676ms total)
T0920 001:403 JLINK_WriteReg(R13 (SP), 0x20000800)  returns 0x00 (0000ms, 0676ms total)
T0920 001:403 JLINK_WriteReg(R14, 0x20000001)  returns 0x00 (0000ms, 0676ms total)
T0920 001:403 JLINK_WriteReg(R15 (PC), 0x200000B6)  returns 0x00 (0000ms, 0676ms total)
T0920 001:403 JLINK_WriteReg(XPSR, 0x01000000)  returns 0x00 (0000ms, 0676ms total)
T0920 001:403 JLINK_WriteReg(MSP, 0x20000800)  returns 0x00 (0000ms, 0676ms total)
T0920 001:403 JLINK_WriteReg(PSP, 0x20000800)  returns 0x00 (0000ms, 0676ms total)
T0920 001:403 JLINK_WriteReg(CFBP, 0x00000000)  returns 0x00 (0000ms, 0676ms total)
T0920 001:403 JLINK_SetBPEx(Addr = 0x20000000, Type = 0xFFFFFFF2)  returns 0x0000000D (0000ms, 0676ms total)
T0920 001:403 JLINK_Go() (0001ms, 0677ms total)
T0920 001:404 JLINK_IsHalted()  returns FALSE (0001ms, 0678ms total)
T0920 001:491 JLINK_IsHalted() -- CPU_ReadMem(2 bytes @ 0x20000000)  returns TRUE (0002ms, 0679ms total)
T0920 001:493 JLINK_ReadReg(R15 (PC))  returns 0x20000000 (0000ms, 0677ms total)
T0920 001:493 JLINK_ClrBPEx(BPHandle = 0x0000000D)  returns 0x00 (0000ms, 0677ms total)
T0920 001:493 JLINK_ReadReg(R0)  returns 0x00000000 (0000ms, 0677ms total)
T0920 001:494 JLINK_WriteReg(R0, 0x00000001)  returns 0x00 (0000ms, 0677ms total)
T0920 001:494 JLINK_WriteReg(R1, 0x00000400)  returns 0x00 (0000ms, 0677ms total)
T0920 001:494 JLINK_WriteReg(R2, 0x000000FF)  returns 0x00 (0000ms, 0677ms total)
T0920 001:494 JLINK_WriteReg(R3, 0x00000000)  returns 0x00 (0000ms, 0677ms total)
T0920 001:494 JLINK_WriteReg(R4, 0x00000000)  returns 0x00 (0000ms, 0677ms total)
T0920 001:494 JLINK_WriteReg(R5, 0x00000000)  returns 0x00 (0000ms, 0677ms total)
T0920 001:494 JLINK_WriteReg(R6, 0x00000000)  returns 0x00 (0000ms, 0677ms total)
T0920 001:494 JLINK_WriteReg(R7, 0x00000000)  returns 0x00 (0000ms, 0677ms total)
T0920 001:494 JLINK_WriteReg(R8, 0x00000000)  returns 0x00 (0000ms, 0677ms total)
T0920 001:494 JLINK_WriteReg(R9, 0x20000160)  returns 0x00 (0000ms, 0677ms total)
T0920 001:494 JLINK_WriteReg(R10, 0x00000000)  returns 0x00 (0000ms, 0677ms total)
T0920 001:494 JLINK_WriteReg(R11, 0x00000000)  returns 0x00 (0000ms, 0677ms total)
T0920 001:494 JLINK_WriteReg(R12, 0x00000000)  returns 0x00 (0000ms, 0677ms total)
T0920 001:494 JLINK_WriteReg(R13 (SP), 0x20000800)  returns 0x00 (0000ms, 0677ms total)
T0920 001:494 JLINK_WriteReg(R14, 0x20000001)  returns 0x00 (0000ms, 0677ms total)
T0920 001:494 JLINK_WriteReg(R15 (PC), 0x2000006A)  returns 0x00 (0000ms, 0677ms total)
T0920 001:494 JLINK_WriteReg(XPSR, 0x01000000)  returns 0x00 (0000ms, 0677ms total)
T0920 001:494 JLINK_WriteReg(MSP, 0x20000800)  returns 0x00 (0000ms, 0677ms total)
T0920 001:494 JLINK_WriteReg(PSP, 0x20000800)  returns 0x00 (0000ms, 0677ms total)
T0920 001:494 JLINK_WriteReg(CFBP, 0x00000000)  returns 0x00 (0000ms, 0677ms total)
T0920 001:494 JLINK_SetBPEx(Addr = 0x20000000, Type = 0xFFFFFFF2)  returns 0x0000000E (0000ms, 0677ms total)
T0920 001:494 JLINK_Go() (0002ms, 0679ms total)
T0920 001:496 JLINK_IsHalted() -- CPU_ReadMem(2 bytes @ 0x20000000)  returns TRUE (0002ms, 0681ms total)
T0920 001:498 JLINK_ReadReg(R15 (PC))  returns 0x20000000 (0000ms, 0679ms total)
T0920 001:498 JLINK_ClrBPEx(BPHandle = 0x0000000E)  returns 0x00 (0000ms, 0679ms total)
T0920 001:498 JLINK_ReadReg(R0)  returns 0x00000000 (0000ms, 0679ms total)
T0920 001:556 JLINK_WriteMem(0x20000000, 0x0164 Bytes, ...) -- Data:  00 BE 0A E0 0D 78 2D 06 68 40 08 24 40 00 00 D3 ... -- CPU_WriteMem(356 bytes @ 0x20000000)  returns 0x164 (0002ms, 0681ms total)
T0920 001:558 JLINK_WriteReg(R0, 0x08000000)  returns 0x00 (0001ms, 0682ms total)
T0920 001:559 JLINK_WriteReg(R1, 0x007A1200)  returns 0x00 (0000ms, 0682ms total)
T0920 001:559 JLINK_WriteReg(R2, 0x00000002)  returns 0x00 (0000ms, 0682ms total)
T0920 001:559 JLINK_WriteReg(R3, 0x00000000)  returns 0x00 (0000ms, 0682ms total)
T0920 001:559 JLINK_WriteReg(R4, 0x00000000)  returns 0x00 (0000ms, 0682ms total)
T0920 001:559 JLINK_WriteReg(R5, 0x00000000)  returns 0x00 (0000ms, 0682ms total)
T0920 001:559 JLINK_WriteReg(R6, 0x00000000)  returns 0x00 (0000ms, 0682ms total)
T0920 001:559 JLINK_WriteReg(R7, 0x00000000)  returns 0x00 (0000ms, 0682ms total)
T0920 001:559 JLINK_WriteReg(R8, 0x00000000)  returns 0x00 (0000ms, 0682ms total)
T0920 001:559 JLINK_WriteReg(R9, 0x20000160)  returns 0x00 (0000ms, 0682ms total)
T0920 001:559 JLINK_WriteReg(R10, 0x00000000)  returns 0x00 (0000ms, 0682ms total)
T0920 001:559 JLINK_WriteReg(R11, 0x00000000)  returns 0x00 (0000ms, 0682ms total)
T0920 001:559 JLINK_WriteReg(R12, 0x00000000)  returns 0x00 (0000ms, 0682ms total)
T0920 001:559 JLINK_WriteReg(R13 (SP), 0x20000800)  returns 0x00 (0000ms, 0682ms total)
T0920 001:559 JLINK_WriteReg(R14, 0x20000001)  returns 0x00 (0000ms, 0682ms total)
T0920 001:559 JLINK_WriteReg(R15 (PC), 0x20000038)  returns 0x00 (0000ms, 0682ms total)
T0920 001:559 JLINK_WriteReg(XPSR, 0x01000000)  returns 0x00 (0000ms, 0682ms total)
T0920 001:559 JLINK_WriteReg(MSP, 0x20000800)  returns 0x00 (0000ms, 0682ms total)
T0920 001:559 JLINK_WriteReg(PSP, 0x20000800)  returns 0x00 (0000ms, 0682ms total)
T0920 001:559 JLINK_WriteReg(CFBP, 0x00000000)  returns 0x00 (0000ms, 0682ms total)
T0920 001:559 JLINK_SetBPEx(Addr = 0x20000000, Type = 0xFFFFFFF2) -- CPU_ReadMem(2 bytes @ 0x20000000)  returns 0x0000000F (0001ms, 0683ms total)
T0920 001:560 JLINK_Go() -- CPU_WriteMem(2 bytes @ 0x20000000) (0002ms, 0685ms total)
T0920 001:562 JLINK_IsHalted() -- CPU_ReadMem(2 bytes @ 0x20000000)  returns TRUE (0003ms, 0688ms total)
T0920 001:565 JLINK_ReadReg(R15 (PC))  returns 0x20000000 (0000ms, 0685ms total)
T0920 001:565 JLINK_ClrBPEx(BPHandle = 0x0000000F)  returns 0x00 (0000ms, 0685ms total)
T0920 001:565 JLINK_ReadReg(R0)  returns 0x00000000 (0000ms, 0685ms total)
T0920 001:566 JLINK_WriteMem(0x20000164, 0x0400 Bytes, ...) -- Data:  08 07 00 20 A1 01 00 08 23 07 00 08 1F 07 00 08 ... -- CPU_WriteMem(1024 bytes @ 0x20000164)  returns 0x400 (0004ms, 0689ms total)
T0920 001:570 JLINK_WriteReg(R0, 0x08000000)  returns 0x00 (0000ms, 0689ms total)
T0920 001:570 JLINK_WriteReg(R1, 0x00000400)  returns 0x00 (0000ms, 0689ms total)
T0920 001:570 JLINK_WriteReg(R2, 0x20000164)  returns 0x00 (0000ms, 0689ms total)
T0920 001:570 JLINK_WriteReg(R3, 0x00000000)  returns 0x00 (0000ms, 0689ms total)
T0920 001:570 JLINK_WriteReg(R4, 0x00000000)  returns 0x00 (0000ms, 0689ms total)
T0920 001:570 JLINK_WriteReg(R5, 0x00000000)  returns 0x00 (0000ms, 0689ms total)
T0920 001:570 JLINK_WriteReg(R6, 0x00000000)  returns 0x00 (0000ms, 0689ms total)
T0920 001:570 JLINK_WriteReg(R7, 0x00000000)  returns 0x00 (0000ms, 0689ms total)
T0920 001:570 JLINK_WriteReg(R8, 0x00000000)  returns 0x00 (0000ms, 0689ms total)
T0920 001:570 JLINK_WriteReg(R9, 0x20000160)  returns 0x00 (0000ms, 0689ms total)
T0920 001:570 JLINK_WriteReg(R10, 0x00000000)  returns 0x00 (0000ms, 0689ms total)
T0920 001:570 JLINK_WriteReg(R11, 0x00000000)  returns 0x00 (0000ms, 0689ms total)
T0920 001:570 JLINK_WriteReg(R12, 0x00000000)  returns 0x00 (0000ms, 0689ms total)
T0920 001:570 JLINK_WriteReg(R13 (SP), 0x20000800)  returns 0x00 (0000ms, 0689ms total)
T0920 001:570 JLINK_WriteReg(R14, 0x20000001)  returns 0x00 (0000ms, 0689ms total)
T0920 001:570 JLINK_WriteReg(R15 (PC), 0x200000F4)  returns 0x00 (0000ms, 0689ms total)
T0920 001:570 JLINK_WriteReg(XPSR, 0x01000000)  returns 0x00 (0000ms, 0689ms total)
T0920 001:570 JLINK_WriteReg(MSP, 0x20000800)  returns 0x00 (0000ms, 0689ms total)
T0920 001:571 JLINK_WriteReg(PSP, 0x20000800)  returns 0x00 (0000ms, 0690ms total)
T0920 001:571 JLINK_WriteReg(CFBP, 0x00000000)  returns 0x00 (0000ms, 0690ms total)
T0920 001:571 JLINK_SetBPEx(Addr = 0x20000000, Type = 0xFFFFFFF2)  returns 0x00000010 (0000ms, 0690ms total)
T0920 001:571 JLINK_Go() (0001ms, 0691ms total)
T0920 001:572 JLINK_IsHalted()  returns FALSE (0001ms, 0692ms total)
T0920 001:683 JLINK_IsHalted() -- CPU_ReadMem(2 bytes @ 0x20000000)  returns TRUE (0002ms, 0693ms total)
T0920 001:685 JLINK_ReadReg(R15 (PC))  returns 0x20000000 (0000ms, 0691ms total)
T0920 001:685 JLINK_ClrBPEx(BPHandle = 0x00000010)  returns 0x00 (0000ms, 0691ms total)
T0920 001:685 JLINK_ReadReg(R0)  returns 0x00000000 (0000ms, 0691ms total)
T0920 001:686 JLINK_WriteMem(0x20000164, 0x0400 Bytes, ...) -- Data:  86 FB 00 28 0A D0 29 46 20 46 00 F0 69 FB 29 46 ... -- CPU_WriteMem(1024 bytes @ 0x20000164)  returns 0x400 (0004ms, 0695ms total)
T0920 001:690 JLINK_WriteReg(R0, 0x08000400)  returns 0x00 (0000ms, 0695ms total)
T0920 001:690 JLINK_WriteReg(R1, 0x00000400)  returns 0x00 (0001ms, 0696ms total)
T0920 001:691 JLINK_WriteReg(R2, 0x20000164)  returns 0x00 (0000ms, 0696ms total)
T0920 001:691 JLINK_WriteReg(R3, 0x00000000)  returns 0x00 (0000ms, 0696ms total)
T0920 001:691 JLINK_WriteReg(R4, 0x00000000)  returns 0x00 (0000ms, 0696ms total)
T0920 001:691 JLINK_WriteReg(R5, 0x00000000)  returns 0x00 (0000ms, 0696ms total)
T0920 001:691 JLINK_WriteReg(R6, 0x00000000)  returns 0x00 (0000ms, 0696ms total)
T0920 001:691 JLINK_WriteReg(R7, 0x00000000)  returns 0x00 (0000ms, 0696ms total)
T0920 001:691 JLINK_WriteReg(R8, 0x00000000)  returns 0x00 (0000ms, 0696ms total)
T0920 001:691 JLINK_WriteReg(R9, 0x20000160)  returns 0x00 (0000ms, 0696ms total)
T0920 001:691 JLINK_WriteReg(R10, 0x00000000)  returns 0x00 (0000ms, 0696ms total)
T0920 001:691 JLINK_WriteReg(R11, 0x00000000)  returns 0x00 (0000ms, 0696ms total)
T0920 001:691 JLINK_WriteReg(R12, 0x00000000)  returns 0x00 (0000ms, 0696ms total)
T0920 001:691 JLINK_WriteReg(R13 (SP), 0x20000800)  returns 0x00 (0000ms, 0696ms total)
T0920 001:691 JLINK_WriteReg(R14, 0x20000001)  returns 0x00 (0000ms, 0696ms total)
T0920 001:691 JLINK_WriteReg(R15 (PC), 0x200000F4)  returns 0x00 (0000ms, 0696ms total)
T0920 001:691 JLINK_WriteReg(XPSR, 0x01000000)  returns 0x00 (0000ms, 0696ms total)
T0920 001:691 JLINK_WriteReg(MSP, 0x20000800)  returns 0x00 (0000ms, 0696ms total)
T0920 001:691 JLINK_WriteReg(PSP, 0x20000800)  returns 0x00 (0000ms, 0696ms total)
T0920 001:691 JLINK_WriteReg(CFBP, 0x00000000)  returns 0x00 (0000ms, 0696ms total)
T0920 001:691 JLINK_SetBPEx(Addr = 0x20000000, Type = 0xFFFFFFF2)  returns 0x00000011 (0000ms, 0696ms total)
T0920 001:691 JLINK_Go() (0001ms, 0697ms total)
T0920 001:692 JLINK_IsHalted()  returns FALSE (0001ms, 0698ms total)
T0920 001:796 JLINK_IsHalted() -- CPU_ReadMem(2 bytes @ 0x20000000)  returns TRUE (0002ms, 0699ms total)
T0920 001:798 JLINK_ReadReg(R15 (PC))  returns 0x20000000 (0000ms, 0697ms total)
T0920 001:798 JLINK_ClrBPEx(BPHandle = 0x00000011)  returns 0x00 (0000ms, 0697ms total)
T0920 001:798 JLINK_ReadReg(R0)  returns 0x00000000 (0000ms, 0697ms total)
T0920 001:799 JLINK_WriteMem(0x20000164, 0x0400 Bytes, ...) -- Data:  01 60 41 68 21 F4 FE 01 41 60 4F F4 1F 01 81 60 ... -- CPU_WriteMem(1024 bytes @ 0x20000164)  returns 0x400 (0005ms, 0702ms total)
T0920 001:804 JLINK_WriteReg(R0, 0x08000800)  returns 0x00 (0000ms, 0702ms total)
T0920 001:804 JLINK_WriteReg(R1, 0x00000400)  returns 0x00 (0000ms, 0702ms total)
T0920 001:804 JLINK_WriteReg(R2, 0x20000164)  returns 0x00 (0000ms, 0702ms total)
T0920 001:804 JLINK_WriteReg(R3, 0x00000000)  returns 0x00 (0000ms, 0702ms total)
T0920 001:804 JLINK_WriteReg(R4, 0x00000000)  returns 0x00 (0000ms, 0702ms total)
T0920 001:804 JLINK_WriteReg(R5, 0x00000000)  returns 0x00 (0000ms, 0702ms total)
T0920 001:804 JLINK_WriteReg(R6, 0x00000000)  returns 0x00 (0000ms, 0702ms total)
T0920 001:804 JLINK_WriteReg(R7, 0x00000000)  returns 0x00 (0000ms, 0702ms total)
T0920 001:804 JLINK_WriteReg(R8, 0x00000000)  returns 0x00 (0000ms, 0702ms total)
T0920 001:804 JLINK_WriteReg(R9, 0x20000160)  returns 0x00 (0000ms, 0702ms total)
T0920 001:804 JLINK_WriteReg(R10, 0x00000000)  returns 0x00 (0000ms, 0702ms total)
T0920 001:804 JLINK_WriteReg(R11, 0x00000000)  returns 0x00 (0000ms, 0702ms total)
T0920 001:804 JLINK_WriteReg(R12, 0x00000000)  returns 0x00 (0000ms, 0702ms total)
T0920 001:804 JLINK_WriteReg(R13 (SP), 0x20000800)  returns 0x00 (0000ms, 0702ms total)
T0920 001:804 JLINK_WriteReg(R14, 0x20000001)  returns 0x00 (0000ms, 0702ms total)
T0920 001:804 JLINK_WriteReg(R15 (PC), 0x200000F4)  returns 0x00 (0000ms, 0702ms total)
T0920 001:804 JLINK_WriteReg(XPSR, 0x01000000)  returns 0x00 (0000ms, 0702ms total)
T0920 001:804 JLINK_WriteReg(MSP, 0x20000800)  returns 0x00 (0000ms, 0702ms total)
T0920 001:804 JLINK_WriteReg(PSP, 0x20000800)  returns 0x00 (0000ms, 0702ms total)
T0920 001:804 JLINK_WriteReg(CFBP, 0x00000000)  returns 0x00 (0000ms, 0702ms total)
T0920 001:804 JLINK_SetBPEx(Addr = 0x20000000, Type = 0xFFFFFFF2)  returns 0x00000012 (0000ms, 0702ms total)
T0920 001:804 JLINK_Go() (0002ms, 0704ms total)
T0920 001:806 JLINK_IsHalted()  returns FALSE (0000ms, 0704ms total)
T0920 001:812 JLINK_IsHalted()  returns FALSE (0000ms, 0704ms total)
T0920 001:813 JLINK_IsHalted()  returns FALSE (0000ms, 0704ms total)
T0920 001:814 JLINK_IsHalted()  returns FALSE (0000ms, 0704ms total)
T0920 001:815 JLINK_IsHalted()  returns FALSE (0000ms, 0704ms total)
T0920 001:816 JLINK_IsHalted()  returns FALSE (0000ms, 0704ms total)
T0920 001:817 JLINK_IsHalted()  returns FALSE (0000ms, 0704ms total)
T0920 001:818 JLINK_IsHalted()  returns FALSE (0000ms, 0704ms total)
T0920 001:819 JLINK_IsHalted()  returns FALSE (0000ms, 0704ms total)
T0920 001:820 JLINK_IsHalted()  returns FALSE (0000ms, 0704ms total)
T0920 001:821 JLINK_IsHalted()  returns FALSE (0000ms, 0704ms total)
T0920 001:910 JLINK_IsHalted() -- CPU_ReadMem(2 bytes @ 0x20000000)  returns TRUE (0002ms, 0706ms total)
T0920 001:912 JLINK_ReadReg(R15 (PC))  returns 0x20000000 (0000ms, 0704ms total)
T0920 001:912 JLINK_ClrBPEx(BPHandle = 0x00000012)  returns 0x00 (0000ms, 0704ms total)
T0920 001:913 JLINK_ReadReg(R0)  returns 0x00000000 (0000ms, 0704ms total)
T0920 001:914 JLINK_WriteMem(0x20000164, 0x0400 Bytes, ...) -- Data:  A3 89 1D 04 4F F0 32 03 06 D5 03 EB C0 00 B0 FB ... -- CPU_WriteMem(1024 bytes @ 0x20000164)  returns 0x400 (0004ms, 0708ms total)
T0920 001:918 JLINK_WriteReg(R0, 0x08000C00)  returns 0x00 (0000ms, 0708ms total)
T0920 001:918 JLINK_WriteReg(R1, 0x00000400)  returns 0x00 (0000ms, 0708ms total)
T0920 001:918 JLINK_WriteReg(R2, 0x20000164)  returns 0x00 (0000ms, 0708ms total)
T0920 001:918 JLINK_WriteReg(R3, 0x00000000)  returns 0x00 (0000ms, 0708ms total)
T0920 001:918 JLINK_WriteReg(R4, 0x00000000)  returns 0x00 (0000ms, 0708ms total)
T0920 001:918 JLINK_WriteReg(R5, 0x00000000)  returns 0x00 (0000ms, 0708ms total)
T0920 001:918 JLINK_WriteReg(R6, 0x00000000)  returns 0x00 (0000ms, 0708ms total)
T0920 001:918 JLINK_WriteReg(R7, 0x00000000)  returns 0x00 (0000ms, 0708ms total)
T0920 001:918 JLINK_WriteReg(R8, 0x00000000)  returns 0x00 (0000ms, 0708ms total)
T0920 001:918 JLINK_WriteReg(R9, 0x20000160)  returns 0x00 (0000ms, 0708ms total)
T0920 001:918 JLINK_WriteReg(R10, 0x00000000)  returns 0x00 (0000ms, 0708ms total)
T0920 001:918 JLINK_WriteReg(R11, 0x00000000)  returns 0x00 (0000ms, 0708ms total)
T0920 001:918 JLINK_WriteReg(R12, 0x00000000)  returns 0x00 (0000ms, 0708ms total)
T0920 001:918 JLINK_WriteReg(R13 (SP), 0x20000800)  returns 0x00 (0000ms, 0708ms total)
T0920 001:918 JLINK_WriteReg(R14, 0x20000001)  returns 0x00 (0000ms, 0708ms total)
T0920 001:918 JLINK_WriteReg(R15 (PC), 0x200000F4)  returns 0x00 (0000ms, 0708ms total)
T0920 001:918 JLINK_WriteReg(XPSR, 0x01000000)  returns 0x00 (0000ms, 0708ms total)
T0920 001:919 JLINK_WriteReg(MSP, 0x20000800)  returns 0x00 (0000ms, 0709ms total)
T0920 001:919 JLINK_WriteReg(PSP, 0x20000800)  returns 0x00 (0000ms, 0709ms total)
T0920 001:919 JLINK_WriteReg(CFBP, 0x00000000)  returns 0x00 (0000ms, 0709ms total)
T0920 001:919 JLINK_SetBPEx(Addr = 0x20000000, Type = 0xFFFFFFF2)  returns 0x00000013 (0000ms, 0709ms total)
T0920 001:919 JLINK_Go() (0001ms, 0710ms total)
